
T8AD0 000:048 SEGGER J-Link V6.00e Log File (0001ms, 0017ms total)
T8AD0 000:048 DLL Compiled: Aug  4 2016 09:37:38 (0001ms, 0017ms total)
T8AD0 000:048 Logging started @ 2018-03-01 12:34 (0001ms, 0017ms total)
T8AD0 000:049 JLINK_SetWarnOutHandler(...) (0000ms, 0017ms total)
T8AD0 000:049 JLINK_OpenEx(...)
Firmware: J-Link ARM-OB STM32 compiled Aug 22 2012 19:52:04
Hardware: V7.00
S/N: 20090928
Feature(s): RDI,FlashDL,FlashBP,JFlash,GDBFull  returns O.K. (0011ms, 0028ms total)
T8AD0 000:060 JLINK_SetErrorOutHandler(...) (0000ms, 0028ms total)
T8AD0 000:060 JLINK_ExecCommand("ProjectFile = "E:\学习资料\单片机\KEA128\程序\驱动调试\USER\JLinkSettings.ini"", ...). Device "CORTEX-M0+" selected.  returns 0x00 (0109ms, 0137ms total)
T8AD0 000:169 JLINK_ExecCommand("Device = SKEAZ128xxx4", ...). Device "SKEAZ128XXX4" selected.  returns 0x00 (0001ms, 0138ms total)
T8AD0 000:170 JLINK_ExecCommand("DisableConnectionTimeout", ...).   returns 0x01 (0000ms, 0138ms total)
T8AD0 000:170 JLINK_GetHardwareVersion()  returns 0x11170 (0000ms, 0138ms total)
T8AD0 000:170 JLINK_GetDLLVersion()  returns 60005 (0000ms, 0138ms total)
T8AD0 000:170 JLINK_GetFirmwareString(...) (0000ms, 0138ms total)
T8AD0 000:170 JLINK_GetDLLVersion()  returns 60005 (0000ms, 0138ms total)
T8AD0 000:170 JLINK_GetCompileDateTime() (0000ms, 0138ms total)
T8AD0 000:170 JLINK_GetFirmwareString(...) (0000ms, 0138ms total)
T8AD0 000:170 JLINK_GetHardwareVersion()  returns 0x11170 (0000ms, 0138ms total)
T8AD0 000:170 JLINK_TIF_Select(JLINKARM_TIF_SWD)  returns 0x00 (0000ms, 0138ms total)
T8AD0 000:171 JLINK_SetSpeed(5000) (0000ms, 0138ms total)
T8AD0 000:171 JLINK_GetId() >0x108 TIF>Found SWD-DP with ID 0x0BC11477 >0x0D TIF> >0x28 TIF> >0x0D TIF> >0x28 TIF> >0x0D TIF> >0x28 TIF> >0x0D TIF> >0x28 TIF> >0x0D TIF> >0x21 TIF> >0x0D TIF> >0x28 TIF> >0x0D TIF> >0x21 TIF> >0x0D TIF> >0x21 TIF> >0x0D TIF> >0x21 TIF> >0x0D TIF> >0x21 TIF> >0x0D TIF> >0x21 TIF> >0x0D TIF> >0x21 TIF> >0x0D TIF> >0x21 TIF> >0x0D TIF> >0x21 TIF> >0x0D TIF> >0x21 TIF> >0x0D TIF> >0x21 TIF> >0x0D TIF> >0x21 TIF> >0x0D TIF> >0x21 TIF> >0x0D TIF> >0x21 TIF> >0x0D TIF>
 >0x21 TIF> >0x0D TIF> >0x21 TIF> >0x0D TIF> >0x21 TIF> >0x0D TIF> >0x21 TIF> >0x0D TIF> >0x21 TIF> >0x0D TIF> >0x21 TIF> >0x0D TIF> >0x21 TIF> >0x0D TIF> >0x21 TIF> >0x0D TIF> >0x21 TIF> >0x0D TIF> >0x21 TIF> >0x0D TIF> >0x21 TIF> >0x0D TIF> >0x21 TIF> >0x0D TIF> >0x21 TIF> >0x0D TIF> >0x21 TIF> >0x0D TIF> >0x21 TIF> >0x0D TIF> >0x21 TIF> >0x0D TIF> >0x21 TIF> >0x0D TIF> >0x21 TIF> >0x0D TIF> >0x21 TIF> >0x0D TIF> >0x21 TIF> >0x0D TIF> >0x21 TIF> >0x0D TIF> >0x21 TIF> >0x0D TIF> >0x21 TIF> >0x0D TIF>
 >0x21 TIF> >0x0D TIF> >0x21 TIF> >0x0D TIF> >0x21 TIF> >0x0D TIF> >0x21 TIF> >0x0D TIF> >0x21 TIF> >0x0D TIF> >0x21 TIF> >0x0D TIF> >0x21 TIF> >0x0D TIF> >0x21 TIF> >0x0D TIF> >0x21 TIF> >0x0D TIF> >0x21 TIF> >0x0D TIF> >0x21 TIF> >0x0D TIF> >0x21 TIF> >0x0D TIF> >0x21 TIF> >0x0D TIF> >0x21 TIF> >0x0D TIF> >0x21 TIF> >0x0D TIF> >0x21 TIF> >0x0D TIF> >0x21 TIF> >0x0D TIF> >0x21 TIF> >0x0D TIF> >0x21 TIF> >0x0D TIF> >0x21 TIF> >0x0D TIF> >0x21 TIF> >0x0D TIF> >0x21 TIF> >0x0D TIF> >0x21 TIF> >0x0D TIF>
 >0x21 TIF> >0x0D TIF> >0x21 TIF> >0x0D TIF> >0x21 TIF> >0x0D TIF> >0x21 TIF> >0x0D TIF> >0x21 TIF> >0x0D TIF> >0x21 TIF> >0x0D TIF> >0x21 TIF> >0x0D TIF> >0x21 TIF> >0x0D TIF> >0x21 TIF> >0x0D TIF> >0x21 TIF> >0x0D TIF> >0x21 TIF> >0x0D TIF> >0x21 TIF> >0x0D TIF> >0x21 TIF> >0x0D TIF> >0x21 TIF> >0x0D TIF> >0x21 TIF> >0x0D TIF> >0x21 TIF> >0x0D TIF> >0x21 TIF> >0x0D TIF> >0x21 TIF> >0x0D TIF> >0x21 TIF> >0x0D TIF> >0x21 TIF> >0x0D TIF> >0x21 TIF> >0x0D TIF> >0x21 TIF> >0x0D TIF> >0x21 TIF> >0x0D TIF>
 >0x21 TIF> >0x0D TIF> >0x21 TIF> >0x0D TIF> >0x21 TIF> >0x0D TIF> >0x21 TIF> >0x0D TIF> >0x21 TIF> >0x0D TIF> >0x21 TIF> >0x0D TIF> >0x21 TIF> >0x0D TIF> >0x21 TIF> >0x0D TIF> >0x21 TIF> >0x0D TIF> >0x21 TIF> >0x0D TIF> >0x21 TIF> >0x0D TIF> >0x21 TIF> >0x0D TIF> >0x21 TIF> >0x0D TIF> >0x21 TIF> >0x0D TIF> >0x21 TIF> >0x0D TIF> >0x21 TIF> >0x0D TIF> >0x21 TIF> >0x0D TIF> >0x21 TIF> >0x0D TIF> >0x21 TIF> >0x0D TIF> >0x21 TIF> >0x0D TIF> >0x21 TIF> >0x0D TIF> >0x21 TIF> >0x0D TIF> >0x21 TIF> >0x0D TIF>
 >0x21 TIF> >0x0D TIF> >0x21 TIF> >0x0D TIF> >0x21 TIF> >0x0D TIF> >0x21 TIF> >0x0D TIF> >0x21 TIF> >0x0D TIF> >0x21 TIF> >0x0D TIF> >0x21 TIF> >0x0D TIF> >0x21 TIF> >0x0D TIF> >0x21 TIF> >0x0D TIF> >0x21 TIF> >0x0D TIF> >0x21 TIF> >0x0D TIF> >0x21 TIF> >0x0D TIF> >0x21 TIF> >0x0D TIF> >0x21 TIF> >0x0D TIF> >0x21 TIF> >0x0D TIF> >0x21 TIF> >0x0D TIF> >0x21 TIF> >0x0D TIF> >0x21 TIF> >0x0D TIF> >0x21 TIF> >0x0D TIF> >0x21 TIF> >0x0D TIF> >0x21 TIF> >0x0D TIF> >0x21 TIF> >0x0D TIF> >0x21 TIF> >0x0D TIF>
 >0x21 TIF> >0x0D TIF> >0x21 TIF> >0x0D TIF> >0x21 TIF> >0x0D TIF> >0x21 TIF> >0x0D TIF> >0x21 TIF> >0x0D TIF> >0x21 TIF> >0x0D TIF> >0x21 TIF> >0x0D TIF> >0x21 TIF> >0x0D TIF> >0x21 TIF> >0x0D TIF> >0x21 TIF> >0x0D TIF> >0x21 TIF> >0x0D TIF> >0x21 TIF> >0x0D TIF> >0x21 TIF> >0x0D TIF> >0x21 TIF> >0x0D TIF> >0x21 TIF> >0x0D TIF> >0x21 TIF> >0x0D TIF> >0x21 TIF> >0x0D TIF> >0x21 TIF> >0x0D TIF> >0x21 TIF> >0x0D TIF> >0x21 TIF> >0x0D TIF> >0x21 TIF> >0x0D TIF> >0x21 TIF> >0x0D TIF> >0x28 TIF> >0x0D TIF>
 >0x28 TIF> >0x0D TIF> >0x28 TIF> >0x0D TIF> >0x21 TIF> >0x0D TIF> >0x21 TIF> >0x108 TIF>Found SWD-DP with ID 0x0BC11477 >0x0D TIF> >0x28 TIF> >0x0D TIF> >0x28 TIF> >0x0D TIF> >0x28 TIF> >0x0D TIF> >0x28 TIF> >0x0D TIF> >0x21 TIF> >0x0D TIF> >0x28 TIF> >0x0D TIF> >0x28 TIF> >0x0D TIF> >0x21 TIF> >0x0D TIF> >0x21 TIF> >0x0D TIF> >0x21 TIF>AP-IDR: 0x04770031, Type: AHB-AP >0x0D TIF> >0x28 TIF> >0x0D TIF> >0x28 TIF> >0x0D TIF> >0x28 TIF> >0x0D TIF> >0x21 TIF> >0x0D TIF> >0x21 TIF> >0x0D TIF> >0x28 TIF>
 >0x0D TIF> >0x21 TIF> >0x0D TIF> >0x21 TIF>Found Cortex-M0 r0p0, Little endian. -- CPU_ReadMem(4 bytes @ 0xE000EDF0) -- CPU_ReadMem(4 bytes @ 0xE0002000)FPUnit: 2 code (BP) slots and 0 literal slots -- CPU_ReadMem(4 bytes @ 0xE000EDFC) -- CPU_ReadMem(4 bytes @ 0xE0001000) -- CPU_WriteMem(4 bytes @ 0xE0001000)CoreSight components:ROMTbl 0 @ F0002000 -- CPU_ReadMem(16 bytes @ 0xF0002000) -- CPU_ReadMem(16 bytes @ 0xE00FFFF0) -- CPU_ReadMem(16 bytes @ 0xE00FFFE0)
ROMTbl 0 [0]: F00FD000, CID: B105100D, PID: 000BB4C0 ROM TableROMTbl 1 @ E00FF000 -- CPU_ReadMem(16 bytes @ 0xE00FF000) -- CPU_ReadMem(16 bytes @ 0xE000EFF0) -- CPU_ReadMem(16 bytes @ 0xE000EFE0)ROMTbl 1 [0]: FFF0F000, CID: B105E00D, PID: 000BB008 SCS -- CPU_ReadMem(16 bytes @ 0xE0001FF0) -- CPU_ReadMem(16 bytes @ 0xE0001FE0)ROMTbl 1 [1]: FFF02000, CID: B105E00D, PID: 000BB00A DWT -- CPU_ReadMem(16 bytes @ 0xE0002FF0) -- CPU_ReadMem(16 bytes @ 0xE0002FE0)
ROMTbl 1 [2]: FFF03000, CID: B105E00D, PID: 000BB00B FPB -- CPU_ReadMem(1 bytes @ 0x40052000) >0x0D TIF> >0x21 TIF>  returns 0x0BC11477 (0076ms, 0214ms total)
T8AD0 000:247 JLINK_GetDLLVersion()  returns 60005 (0000ms, 0214ms total)
T8AD0 000:247 JLINK_CORE_GetFound()  returns 0x60000FF (0000ms, 0214ms total)
T8AD0 000:247 JLINK_GetDebugInfo(0x100) -- Value=0xF0002000  returns 0x00 (0000ms, 0214ms total)
T8AD0 000:247 JLINK_GetDebugInfo(0x100) -- Value=0xF0002000  returns 0x00 (0000ms, 0214ms total)
T8AD0 000:247 JLINK_GetDebugInfo(0x101) -- Value=0x00000000  returns 0x00 (0000ms, 0214ms total)
T8AD0 000:247 JLINK_ReadMem (0xE0041FF0, 0x0010 Bytes, ...) -- CPU_ReadMem(16 bytes @ 0xE0041FF0) - Data: 00 00 00 00 00 00 00 00 00 00 00 00 00 00 00 00  returns 0x00 (0001ms, 0215ms total)
T8AD0 000:248 JLINK_GetDebugInfo(0x102) -- Value=0x00000000  returns 0x00 (0000ms, 0215ms total)
T8AD0 000:248 JLINK_GetDebugInfo(0x103) -- Value=0x00000000  returns 0x00 (0000ms, 0215ms total)
T8AD0 000:248 JLINK_ReadMem (0xE0040FF0, 0x0010 Bytes, ...) -- CPU_ReadMem(16 bytes @ 0xE0040FF0) - Data: 00 00 00 00 00 00 00 00 00 00 00 00 00 00 00 00  returns 0x00 (0000ms, 0215ms total)
T8AD0 000:248 JLINK_GetDebugInfo(0x104) -- Value=0xE0000000  returns 0x00 (0000ms, 0215ms total)
T8AD0 000:248 JLINK_GetDebugInfo(0x105) -- Value=0xE0001000  returns 0x00 (0000ms, 0215ms total)
T8AD0 000:248 JLINK_GetDebugInfo(0x106) -- Value=0xE0002000  returns 0x00 (0000ms, 0215ms total)
T8AD0 000:248 JLINK_GetDebugInfo(0x107) -- Value=0xE000E000  returns 0x00 (0000ms, 0215ms total)
T8AD0 000:248 JLINK_GetDebugInfo(0x10C) -- Value=0xE000EDF0  returns 0x00 (0001ms, 0216ms total)
T8AD0 000:249 JLINK_ReadMemU32(0xE000ED00, 0x0001 Items, ...) -- CPU_ReadMem(4 bytes @ 0xE000ED00) - Data: 00 C6 0C 41  returns 0x01 (0000ms, 0216ms total)
T8AD0 000:249 JLINK_SetResetType(JLINKARM_RESET_TYPE_NORMAL)  returns JLINKARM_RESET_TYPE_NORMAL (0000ms, 0216ms total)
T8AD0 000:249 JLINK_Reset() -- CPU_WriteMem(4 bytes @ 0xE000EDF0) -- CPU_WriteMem(4 bytes @ 0xE000EDFC) >0x35 TIF> -- CPU_WriteMem(4 bytes @ 0xE000ED0C) -- CPU_ReadMem(4 bytes @ 0xE000EDF0) -- CPU_ReadMem(4 bytes @ 0xE000EDF0) -- CPU_WriteMem(4 bytes @ 0xE000EDF0) -- CPU_WriteMem(4 bytes @ 0xE000EDFC) -- CPU is running -- CPU_ReadMem(4 bytes @ 0xE000EDF0) -- CPU_ReadMem(1 bytes @ 0x40052000) -- CPU_WriteMem(1 bytes @ 0x40052004) -- CPU_WriteMem(1 bytes @ 0x40052005) -- CPU_WriteMem(1 bytes @ 0x40052006)
 -- CPU_WriteMem(1 bytes @ 0x40052007) -- CPU_WriteMem(1 bytes @ 0x40052001) -- CPU_WriteMem(1 bytes @ 0x40052000) -- CPU_ReadMem(1 bytes @ 0x40052000) -- CPU_WriteMem(4 bytes @ 0xE0002000) -- CPU_ReadMem(4 bytes @ 0xE000EDFC) -- CPU_ReadMem(4 bytes @ 0xE0001000) -- CPU_WriteMem(4 bytes @ 0xE0001000) (0025ms, 0241ms total)
T8AD0 000:275 JLINK_ReadReg(R15 (PC))  returns 0x00000166 (0000ms, 0241ms total)
T8AD0 000:275 JLINK_ReadReg(XPSR)  returns 0x81000000 (0000ms, 0241ms total)
T8AD0 000:275 JLINK_Halt()  returns 0x00 (0000ms, 0241ms total)
T8AD0 000:275 JLINK_IsHalted()  returns TRUE (0000ms, 0241ms total)
T8AD0 000:275 JLINK_ReadMemU32(0xE000EDF0, 0x0001 Items, ...) -- CPU_ReadMem(4 bytes @ 0xE000EDF0) - Data: 03 00 03 01  returns 0x01 (0001ms, 0242ms total)
T8AD0 000:276 JLINK_WriteU32(0xE000EDF0, 0xA05F0003) -- CPU_WriteMem(4 bytes @ 0xE000EDF0)  returns 0x00 (0000ms, 0242ms total)
T8AD0 000:276 JLINK_WriteU32(0xE000EDFC, 0x01000000) -- CPU_WriteMem(4 bytes @ 0xE000EDFC)  returns 0x00 (0001ms, 0243ms total)
T8AD0 000:277 JLINK_GetHWStatus(...)  returns 0x00 (0000ms, 0243ms total)
T8AD0 000:277 JLINK_GetNumBPUnits(Type = 0xFFFFFF00)  returns 0x02 (0000ms, 0243ms total)
T8AD0 000:277 JLINK_GetNumBPUnits(Type = 0xF0)  returns 0x2000 (0000ms, 0243ms total)
T8AD0 000:277 JLINK_GetNumWPUnits()  returns 0x02 (0000ms, 0243ms total)
T8AD0 000:277 JLINK_GetSpeed()  returns 0xFA0 (0000ms, 0243ms total)
T8AD0 000:277 JLINK_ReadMemU32(0xE000E004, 0x0001 Items, ...) -- CPU_ReadMem(4 bytes @ 0xE000E004) - Data: 00 00 00 00  returns 0x01 (0001ms, 0244ms total)
T8AD0 000:278 JLINK_ReadReg(R15 (PC))  returns 0x00000166 (0000ms, 0244ms total)
T8AD0 000:278 JLINK_ReadReg(XPSR)  returns 0x81000000 (0000ms, 0244ms total)
T8AD0 000:362 JLINK_SetResetType(JLINKARM_RESET_TYPE_NORMAL)  returns JLINKARM_RESET_TYPE_NORMAL (0000ms, 0244ms total)
T8AD0 000:362 JLINK_Reset() -- CPU_WriteMem(4 bytes @ 0xE000EDF0) -- CPU_WriteMem(4 bytes @ 0xE000EDFC) >0x35 TIF> -- CPU_WriteMem(4 bytes @ 0xE000ED0C) -- CPU_ReadMem(4 bytes @ 0xE000EDF0) -- CPU_ReadMem(4 bytes @ 0xE000EDF0) -- CPU_WriteMem(4 bytes @ 0xE000EDF0) -- CPU_WriteMem(4 bytes @ 0xE000EDFC) -- CPU is running -- CPU_ReadMem(4 bytes @ 0xE000EDF0) -- CPU_ReadMem(1 bytes @ 0x40052000) -- CPU_WriteMem(1 bytes @ 0x40052004) -- CPU_WriteMem(1 bytes @ 0x40052005) -- CPU_WriteMem(1 bytes @ 0x40052006)
 -- CPU_WriteMem(1 bytes @ 0x40052007) -- CPU_WriteMem(1 bytes @ 0x40052001) -- CPU_WriteMem(1 bytes @ 0x40052000) -- CPU_ReadMem(1 bytes @ 0x40052000) -- CPU_WriteMem(4 bytes @ 0xE0002000) -- CPU_ReadMem(4 bytes @ 0xE000EDFC) -- CPU_ReadMem(4 bytes @ 0xE0001000) -- CPU_WriteMem(4 bytes @ 0xE0001000) (0027ms, 0271ms total)
T8AD0 000:389 JLINK_ReadReg(R15 (PC))  returns 0x00000166 (0001ms, 0272ms total)
T8AD0 000:390 JLINK_ReadReg(XPSR)  returns 0x81000000 (0000ms, 0272ms total)
T8AD0 000:390 JLINK_ReadMem (0x00000166, 0x0002 Bytes, ...) -- CPU_ReadMem(64 bytes @ 0x00000140) -- Updating C cache (64 bytes @ 0x00000140) -- Read from C cache (2 bytes @ 0x00000166) - Data: 09 48  returns 0x00 (0002ms, 0274ms total)
T8AD0 000:392 JLINK_ReadMem (0x00000168, 0x003C Bytes, ...) -- CPU_ReadMem(64 bytes @ 0x00000180) -- Updating C cache (64 bytes @ 0x00000180) -- Read from C cache (60 bytes @ 0x00000168) - Data: 80 47 09 48 80 47 09 48 00 47 FE E7 FE E7 FE E7 ...  returns 0x00 (0001ms, 0275ms total)
T8AD0 000:558 JLINK_ReadMem (0x4003B000, 0x001C Bytes, ...) -- CPU_ReadMem(28 bytes @ 0x4003B000) - Data: AA AA AA AA AA AA AA AA AA AA AA AA AA AA AA AA ...  returns 0x01 (0001ms, 0276ms total)
T8AD0 000:559 JLINK_ReadMem (0x4003B000, 0x0004 Bytes, ...) -- CPU_ReadMem(4 bytes @ 0x4003B000) - Data: AA AA AA AA  returns 0x01 (0000ms, 0276ms total)
T8AD0 000:559 JLINK_ReadMem (0x4003B004, 0x0004 Bytes, ...) -- CPU_ReadMem(4 bytes @ 0x4003B004) - Data: AA AA AA AA  returns 0x01 (0001ms, 0277ms total)
T8AD0 000:560 JLINK_ReadMem (0x4003B008, 0x0004 Bytes, ...) -- CPU_ReadMem(4 bytes @ 0x4003B008) - Data: AA AA AA AA  returns 0x01 (0001ms, 0278ms total)
T8AD0 000:561 JLINK_ReadMem (0x4003B00C, 0x0004 Bytes, ...) -- CPU_ReadMem(4 bytes @ 0x4003B00C) - Data: AA AA AA AA  returns 0x01 (0000ms, 0278ms total)
T8AD0 000:561 JLINK_ReadMem (0x4003B010, 0x0004 Bytes, ...) -- CPU_ReadMem(4 bytes @ 0x4003B010) - Data: AA AA AA AA  returns 0x01 (0001ms, 0279ms total)
T8AD0 000:562 JLINK_ReadMem (0x4003B014, 0x0004 Bytes, ...) -- CPU_ReadMem(4 bytes @ 0x4003B014) - Data: AA AA AA AA  returns 0x01 (0000ms, 0279ms total)
T8AD0 000:562 JLINK_ReadMem (0x4003B018, 0x0004 Bytes, ...) -- CPU_ReadMem(4 bytes @ 0x4003B018) - Data: AA AA AA AA  returns 0x01 (0001ms, 0280ms total)
T8AD0 000:563 JLINK_ReadMem (0x4003B01C, 0x0004 Bytes, ...) -- CPU_ReadMem(4 bytes @ 0x4003B01C) - Data: AA AA AA AA  returns 0x01 (0001ms, 0281ms total)
T8AD0 000:564 JLINK_ReadMem (0x4003B01C, 0x0004 Bytes, ...) -- CPU_ReadMem(4 bytes @ 0x4003B01C) - Data: AA AA AA AA  returns 0x01 (0000ms, 0281ms total)
T8AD0 000:640 JLINK_ReadMem (0x40048000, 0x0024 Bytes, ...) -- CPU_ReadMem(36 bytes @ 0x40048000) - Data: 00 04 28 06 0E 00 00 00 00 00 00 00 00 00 00 00 ...  returns 0x00 (0001ms, 0282ms total)
T8AD0 000:641 JLINK_ReadMem (0x40048024, 0x0004 Bytes, ...) -- CPU_ReadMem(4 bytes @ 0x40048024) - Data: 00 00 10 01  returns 0x00 (0001ms, 0283ms total)
T8AD0 002:524 JLINK_ReadMem (0x1FFFF000, 0x0004 Bytes, ...) -- CPU_ReadMem(64 bytes @ 0x1FFFF000) -- Updating C cache (64 bytes @ 0x1FFFF000) -- Read from C cache (4 bytes @ 0x1FFFF000) - Data: 00 B4 C4 04  returns 0x00 (0001ms, 0284ms total)
T62C8 002:612 JLINK_SetBPEx(Addr = 0x000011BC, Type = 0xFFFFFFF2)  returns 0x00000001 (0000ms, 0284ms total)
T62C8 002:612 JLINK_SetBPEx(Addr = 0x00000360, Type = 0xFFFFFFF2)  returns 0x00000002 (0000ms, 0284ms total)
T62C8 002:612 JLINK_Go() -- CPU_WriteMem(4 bytes @ 0xE0002000) -- CPU_WriteMem(4 bytes @ 0xE0002000) -- CPU_ReadMem(4 bytes @ 0xE0001000) -- CPU_WriteMem(4 bytes @ 0xE0001000) -- CPU_WriteMem(4 bytes @ 0xE0002008) -- CPU_WriteMem(4 bytes @ 0xE000200C) -- CPU_WriteMem(4 bytes @ 0xE0001004) (0004ms, 0288ms total)
T62C8 002:717 JLINK_IsHalted()  returns TRUE (0003ms, 0291ms total)
T62C8 002:720 JLINK_Halt()  returns 0x00 (0000ms, 0288ms total)
T62C8 002:720 JLINK_IsHalted()  returns TRUE (0000ms, 0288ms total)
T62C8 002:720 JLINK_IsHalted()  returns TRUE (0000ms, 0288ms total)
T62C8 002:720 JLINK_IsHalted()  returns TRUE (0000ms, 0288ms total)
T62C8 002:720 JLINK_ReadReg(R15 (PC))  returns 0x000011BC (0000ms, 0288ms total)
T62C8 002:720 JLINK_ReadReg(XPSR)  returns 0x01000000 (0000ms, 0288ms total)
T62C8 002:720 JLINK_ClrBPEx(BPHandle = 0x00000001)  returns 0x00 (0000ms, 0288ms total)
T62C8 002:720 JLINK_ClrBPEx(BPHandle = 0x00000002)  returns 0x00 (0000ms, 0288ms total)
T62C8 002:720 JLINK_ReadMemU32(0xE000ED30, 0x0001 Items, ...) -- CPU_ReadMem(4 bytes @ 0xE000ED30) - Data: 03 00 00 00  returns 0x01 (0001ms, 0289ms total)
T62C8 002:721 JLINK_ReadMemU32(0xE0001028, 0x0001 Items, ...) -- CPU_ReadMem(4 bytes @ 0xE0001028) - Data: 00 00 00 00  returns 0x01 (0000ms, 0289ms total)
T62C8 002:721 JLINK_ReadMemU32(0xE0001038, 0x0001 Items, ...) -- CPU_ReadMem(4 bytes @ 0xE0001038) - Data: 00 00 00 00  returns 0x01 (0001ms, 0290ms total)
T62C8 002:722 JLINK_ReadReg(R0)  returns 0x1FFFF538 (0000ms, 0290ms total)
T62C8 002:722 JLINK_ReadReg(R1)  returns 0x1FFFF538 (0000ms, 0290ms total)
T62C8 002:722 JLINK_ReadReg(R2)  returns 0x1FFFF538 (0000ms, 0290ms total)
T62C8 002:722 JLINK_ReadReg(R3)  returns 0x1FFFF538 (0000ms, 0290ms total)
T62C8 002:722 JLINK_ReadReg(R4)  returns 0x00001244 (0000ms, 0290ms total)
T62C8 002:722 JLINK_ReadReg(R5)  returns 0x1FFFF4D4 (0000ms, 0290ms total)
T62C8 002:722 JLINK_ReadReg(R6)  returns 0x00000000 (0000ms, 0290ms total)
T62C8 002:722 JLINK_ReadReg(R7)  returns 0x00000000 (0000ms, 0290ms total)
T62C8 002:722 JLINK_ReadReg(R8)  returns 0x00000000 (0000ms, 0290ms total)
T62C8 002:722 JLINK_ReadReg(R9)  returns 0x1FFFF1A8 (0000ms, 0290ms total)
T62C8 002:722 JLINK_ReadReg(R10)  returns 0x00001244 (0000ms, 0290ms total)
T62C8 002:722 JLINK_ReadReg(R11)  returns 0x00001244 (0000ms, 0290ms total)
T62C8 002:722 JLINK_ReadReg(R12)  returns 0x00000000 (0000ms, 0290ms total)
T62C8 002:722 JLINK_ReadReg(R13 (SP))  returns 0x1FFFF638 (0000ms, 0290ms total)
T62C8 002:722 JLINK_ReadReg(R14)  returns 0x00000153 (0000ms, 0290ms total)
T62C8 002:722 JLINK_ReadReg(R15 (PC))  returns 0x000011BC (0000ms, 0290ms total)
T62C8 002:722 JLINK_ReadReg(XPSR)  returns 0x01000000 (0000ms, 0290ms total)
T62C8 002:722 JLINK_ReadReg(MSP)  returns 0x1FFFF638 (0000ms, 0290ms total)
T62C8 002:722 JLINK_ReadReg(PSP)  returns 0x20000000 (0001ms, 0291ms total)
T62C8 002:723 JLINK_ReadReg(CFBP)  returns 0x00000000 (0000ms, 0291ms total)
T8AD0 002:723 JLINK_ReadMem (0x00000000, 0x0002 Bytes, ...) -- CPU_ReadMem(64 bytes @ 0x00000000) -- Updating C cache (64 bytes @ 0x00000000) -- Read from C cache (2 bytes @ 0x00000000) - Data: 38 F6  returns 0x00 (0001ms, 0292ms total)
T8AD0 002:725 JLINK_ReadMem (0x1FFFF000, 0x0004 Bytes, ...) -- CPU_ReadMem(64 bytes @ 0x1FFFF000) -- Updating C cache (64 bytes @ 0x1FFFF000) -- Read from C cache (4 bytes @ 0x1FFFF000) - Data: 00 B4 C4 04  returns 0x00 (0001ms, 0293ms total)
T8AD0 002:733 JLINK_ReadMem (0x40048000, 0x0024 Bytes, ...) -- CPU_ReadMem(36 bytes @ 0x40048000) - Data: 00 04 28 06 0E 00 00 00 00 00 00 00 00 00 00 00 ...  returns 0x00 (0001ms, 0294ms total)
T8AD0 002:734 JLINK_ReadMem (0x40048024, 0x0004 Bytes, ...) -- CPU_ReadMem(4 bytes @ 0x40048024) - Data: 00 00 10 01  returns 0x00 (0001ms, 0295ms total)
T8AD0 002:735 JLINK_ReadMem (0x4003B000, 0x001C Bytes, ...) -- CPU_ReadMem(28 bytes @ 0x4003B000) - Data: AA AA AA AA AA AA AA AA AA AA AA AA AA AA AA AA ...  returns 0x01 (0001ms, 0296ms total)
T8AD0 002:736 JLINK_ReadMem (0x4003B000, 0x0004 Bytes, ...) -- CPU_ReadMem(4 bytes @ 0x4003B000) - Data: AA AA AA AA  returns 0x01 (0000ms, 0296ms total)
T8AD0 002:736 JLINK_ReadMem (0x4003B004, 0x0004 Bytes, ...) -- CPU_ReadMem(4 bytes @ 0x4003B004) - Data: AA AA AA AA  returns 0x01 (0001ms, 0297ms total)
T8AD0 002:737 JLINK_ReadMem (0x4003B008, 0x0004 Bytes, ...) -- CPU_ReadMem(4 bytes @ 0x4003B008) - Data: AA AA AA AA  returns 0x01 (0001ms, 0298ms total)
T8AD0 002:738 JLINK_ReadMem (0x4003B00C, 0x0004 Bytes, ...) -- CPU_ReadMem(4 bytes @ 0x4003B00C) - Data: AA AA AA AA  returns 0x01 (0000ms, 0298ms total)
T8AD0 002:738 JLINK_ReadMem (0x4003B010, 0x0004 Bytes, ...) -- CPU_ReadMem(4 bytes @ 0x4003B010) - Data: AA AA AA AA  returns 0x01 (0001ms, 0299ms total)
T8AD0 002:739 JLINK_ReadMem (0x4003B014, 0x0004 Bytes, ...) -- CPU_ReadMem(4 bytes @ 0x4003B014) - Data: AA AA AA AA  returns 0x01 (0001ms, 0300ms total)
T8AD0 002:740 JLINK_ReadMem (0x4003B018, 0x0004 Bytes, ...) -- CPU_ReadMem(4 bytes @ 0x4003B018) - Data: AA AA AA AA  returns 0x01 (0000ms, 0300ms total)
T8AD0 002:740 JLINK_ReadMem (0x4003B01C, 0x0004 Bytes, ...) -- CPU_ReadMem(4 bytes @ 0x4003B01C) - Data: AA AA AA AA  returns 0x01 (0001ms, 0301ms total)
T8AD0 002:741 JLINK_ReadMem (0x4003B01C, 0x0004 Bytes, ...) -- CPU_ReadMem(4 bytes @ 0x4003B01C) - Data: AA AA AA AA  returns 0x01 (0000ms, 0301ms total)
T8AD0 002:744 JLINK_ReadMem (0x000011BC, 0x003C Bytes, ...) -- CPU_ReadMem(128 bytes @ 0x00001180) -- Updating C cache (128 bytes @ 0x00001180) -- Read from C cache (60 bytes @ 0x000011BC) - Data: 0E B5 00 BF 03 20 00 90 02 21 68 46 01 71 01 21 ...  returns 0x00 (0002ms, 0303ms total)
T62C8 003:495 JLINK_SetBPEx(Addr = 0x00000360, Type = 0xFFFFFFF2)  returns 0x00000003 (0000ms, 0303ms total)
T62C8 003:495 JLINK_Go() -- CPU_WriteMem(4 bytes @ 0xE0002000) -- CPU_ReadMem(4 bytes @ 0xE0001000) -- CPU_WriteMem(4 bytes @ 0xE0001000) -- CPU_WriteMem(4 bytes @ 0xE0002008) -- CPU_WriteMem(4 bytes @ 0xE000200C) (0003ms, 0306ms total)
T62C8 003:599 JLINK_IsHalted()  returns TRUE (0003ms, 0309ms total)
T62C8 003:602 JLINK_Halt()  returns 0x00 (0000ms, 0306ms total)
T62C8 003:602 JLINK_IsHalted()  returns TRUE (0000ms, 0306ms total)
T62C8 003:602 JLINK_IsHalted()  returns TRUE (0000ms, 0306ms total)
T62C8 003:602 JLINK_IsHalted()  returns TRUE (0000ms, 0306ms total)
T62C8 003:602 JLINK_ReadReg(R15 (PC))  returns 0x00000360 (0000ms, 0306ms total)
T62C8 003:602 JLINK_ReadReg(XPSR)  returns 0x0100001F (0000ms, 0306ms total)
T62C8 003:602 JLINK_ClrBPEx(BPHandle = 0x00000003)  returns 0x00 (0000ms, 0306ms total)
T62C8 003:602 JLINK_ReadMemU32(0xE000ED30, 0x0001 Items, ...) -- CPU_ReadMem(4 bytes @ 0xE000ED30) - Data: 03 00 00 00  returns 0x01 (0001ms, 0307ms total)
T62C8 003:603 JLINK_ReadMemU32(0xE0001028, 0x0001 Items, ...) -- CPU_ReadMem(4 bytes @ 0xE0001028) - Data: 00 00 00 00  returns 0x01 (0000ms, 0307ms total)
T62C8 003:603 JLINK_ReadMemU32(0xE0001038, 0x0001 Items, ...) -- CPU_ReadMem(4 bytes @ 0xE0001038) - Data: 00 00 00 00  returns 0x01 (0001ms, 0308ms total)
T62C8 003:604 JLINK_ReadReg(R0)  returns 0x1FFFF488 (0000ms, 0308ms total)
T62C8 003:604 JLINK_ReadReg(R1)  returns 0x00000000 (0000ms, 0308ms total)
T62C8 003:604 JLINK_ReadReg(R2)  returns 0x1FFFF474 (0000ms, 0308ms total)
T62C8 003:604 JLINK_ReadReg(R3)  returns 0x00000000 (0000ms, 0308ms total)
T62C8 003:604 JLINK_ReadReg(R4)  returns 0x00000001 (0000ms, 0308ms total)
T62C8 003:604 JLINK_ReadReg(R5)  returns 0x1FFFF4D4 (0000ms, 0308ms total)
T62C8 003:604 JLINK_ReadReg(R6)  returns 0x00000000 (0000ms, 0308ms total)
T62C8 003:604 JLINK_ReadReg(R7)  returns 0x00000000 (0000ms, 0308ms total)
T62C8 003:604 JLINK_ReadReg(R8)  returns 0x00000000 (0001ms, 0309ms total)
T62C8 003:605 JLINK_ReadReg(R9)  returns 0x1FFFF1A8 (0000ms, 0309ms total)
T62C8 003:605 JLINK_ReadReg(R10)  returns 0x00001244 (0000ms, 0309ms total)
T62C8 003:605 JLINK_ReadReg(R11)  returns 0x00001244 (0000ms, 0309ms total)
T62C8 003:605 JLINK_ReadReg(R12)  returns 0x00000000 (0000ms, 0309ms total)
T62C8 003:605 JLINK_ReadReg(R13 (SP))  returns 0x1FFFF5F0 (0000ms, 0309ms total)
T62C8 003:605 JLINK_ReadReg(R14)  returns 0xFFFFFFF9 (0000ms, 0309ms total)
T62C8 003:605 JLINK_ReadReg(R15 (PC))  returns 0x00000360 (0000ms, 0309ms total)
T62C8 003:605 JLINK_ReadReg(XPSR)  returns 0x0100001F (0000ms, 0309ms total)
T62C8 003:605 JLINK_ReadReg(MSP)  returns 0x1FFFF5F0 (0000ms, 0309ms total)
T62C8 003:605 JLINK_ReadReg(PSP)  returns 0x20000000 (0000ms, 0309ms total)
T62C8 003:605 JLINK_ReadReg(CFBP)  returns 0x00000000 (0000ms, 0309ms total)
T8AD0 003:605 JLINK_ReadMem (0x1FFFF608, 0x0004 Bytes, ...) -- CPU_ReadMem(64 bytes @ 0x1FFFF600) -- Updating C cache (64 bytes @ 0x1FFFF600) -- Read from C cache (4 bytes @ 0x1FFFF608) - Data: F4 0A 00 00  returns 0x00 (0002ms, 0311ms total)
T8AD0 003:607 JLINK_ReadMem (0x1FFFF60C, 0x0004 Bytes, ...) -- Read from C cache (4 bytes @ 0x1FFFF60C) - Data: 00 00 00 01  returns 0x00 (0000ms, 0311ms total)
T8AD0 003:607 JLINK_ReadMem (0x1FFFF604, 0x0004 Bytes, ...) -- Read from C cache (4 bytes @ 0x1FFFF604) - Data: EB 03 00 00  returns 0x00 (0000ms, 0311ms total)
T8AD0 003:607 JLINK_ReadMem (0xE000ED28, 0x0004 Bytes, ...) -- CPU_ReadMem(4 bytes @ 0xE000ED28) - Data: 00 00 00 00  returns 0x00 (0000ms, 0311ms total)
T8AD0 003:608 JLINK_ReadMem (0x1FFFF61C, 0x0004 Bytes, ...) -- Read from C cache (4 bytes @ 0x1FFFF61C) - Data: EB 03 00 00  returns 0x00 (0000ms, 0311ms total)
T8AD0 003:608 JLINK_ReadMem (0x1FFFF610, 0x0004 Bytes, ...) -- Read from C cache (4 bytes @ 0x1FFFF610) - Data: 44 12 00 00  returns 0x00 (0000ms, 0311ms total)
T8AD0 003:608 JLINK_ReadMem (0x1FFFF614, 0x0004 Bytes, ...) -- Read from C cache (4 bytes @ 0x1FFFF614) - Data: D4 F4 FF 1F  returns 0x00 (0000ms, 0311ms total)
T8AD0 003:608 JLINK_ReadMem (0x1FFFF618, 0x0004 Bytes, ...) -- Read from C cache (4 bytes @ 0x1FFFF618) - Data: 00 00 00 00  returns 0x00 (0000ms, 0311ms total)
T8AD0 003:608 JLINK_ReadMem (0x1FFFF624, 0x0004 Bytes, ...) -- Read from C cache (4 bytes @ 0x1FFFF624) - Data: E9 11 00 00  returns 0x00 (0000ms, 0311ms total)
T8AD0 003:608 JLINK_ReadMem (0x1FFFF620, 0x0004 Bytes, ...) -- Read from C cache (4 bytes @ 0x1FFFF620) - Data: 44 12 00 00  returns 0x00 (0000ms, 0311ms total)
T8AD0 003:608 JLINK_ReadMem (0x1FFFF634, 0x0004 Bytes, ...) -- Read from C cache (4 bytes @ 0x1FFFF634) - Data: 53 01 00 00  returns 0x00 (0000ms, 0311ms total)
T8AD0 003:609 JLINK_ReadMem (0x00000000, 0x0002 Bytes, ...) -- CPU_ReadMem(64 bytes @ 0x00000000) -- Updating C cache (64 bytes @ 0x00000000) -- Read from C cache (2 bytes @ 0x00000000) - Data: 38 F6  returns 0x00 (0001ms, 0312ms total)
T8AD0 003:610 JLINK_ReadMem (0x1FFFF000, 0x0004 Bytes, ...) -- CPU_ReadMem(64 bytes @ 0x1FFFF000) -- Updating C cache (64 bytes @ 0x1FFFF000) -- Read from C cache (4 bytes @ 0x1FFFF000) - Data: 00 B4 C4 04  returns 0x00 (0001ms, 0313ms total)
T8AD0 003:621 JLINK_ReadMem (0x40048000, 0x0024 Bytes, ...) -- CPU_ReadMem(36 bytes @ 0x40048000) - Data: 00 04 28 06 0E 00 00 00 00 00 00 00 00 00 00 00 ...  returns 0x00 (0001ms, 0314ms total)
T8AD0 003:622 JLINK_ReadMem (0x40048024, 0x0004 Bytes, ...) -- CPU_ReadMem(4 bytes @ 0x40048024) - Data: 00 00 10 01  returns 0x00 (0001ms, 0315ms total)
T8AD0 003:623 JLINK_ReadMem (0x4003B000, 0x001C Bytes, ...) -- CPU_ReadMem(28 bytes @ 0x4003B000) - Data: E0 00 00 00 97 00 00 00 28 00 00 00 01 00 00 00 ...  returns 0x00 (0001ms, 0316ms total)
T8AD0 003:624 JLINK_ReadMem (0x4003B01C, 0x0004 Bytes, ...) -- CPU_ReadMem(4 bytes @ 0x4003B01C) - Data: 00 00 00 00  returns 0x00 (0000ms, 0316ms total)
T8AD0 003:652 JLINK_ReadMem (0x00000360, 0x003C Bytes, ...) -- CPU_ReadMem(128 bytes @ 0x00000340) -- Updating C cache (128 bytes @ 0x00000340) -- Read from C cache (60 bytes @ 0x00000360) - Data: 00 20 06 E0 05 49 09 69 42 00 05 4B 99 52 41 1C ...  returns 0x00 (0002ms, 0318ms total)
T62C8 004:270 JLINK_Step() -- Read from C cache (2 bytes @ 0x00000360) -- CPU_ReadMem(4 bytes @ 0xE000ED18) -- CPU_WriteMem(4 bytes @ 0xE000ED18) -- CPU_ReadMem(4 bytes @ 0xE000ED18) -- CPU_WriteMem(4 bytes @ 0xE000ED18) -- CPU_ReadMem(4 bytes @ 0xE0001004) -- Simulated  returns 0x00 (0003ms, 0321ms total)
T62C8 004:273 JLINK_ReadReg(R15 (PC))  returns 0x00000362 (0000ms, 0321ms total)
T62C8 004:273 JLINK_ReadReg(XPSR)  returns 0x4100001F (0000ms, 0321ms total)
T62C8 004:273 JLINK_SetBPEx(Addr = 0x00000360, Type = 0xFFFFFFF2)  returns 0x00000004 (0000ms, 0321ms total)
T62C8 004:273 JLINK_Go() -- CPU_WriteMem(4 bytes @ 0xE0002000) -- CPU_ReadMem(4 bytes @ 0xE0001000) -- CPU_WriteMem(4 bytes @ 0xE0001000) -- CPU_WriteMem(4 bytes @ 0xE0001004) (0003ms, 0324ms total)
T62C8 004:377 JLINK_IsHalted()  returns TRUE (0003ms, 0327ms total)
T62C8 004:380 JLINK_Halt()  returns 0x00 (0000ms, 0324ms total)
T62C8 004:380 JLINK_IsHalted()  returns TRUE (0000ms, 0324ms total)
T62C8 004:380 JLINK_IsHalted()  returns TRUE (0000ms, 0324ms total)
T62C8 004:380 JLINK_IsHalted()  returns TRUE (0001ms, 0325ms total)
T62C8 004:381 JLINK_ReadReg(R15 (PC))  returns 0x00000360 (0000ms, 0324ms total)
T62C8 004:381 JLINK_ReadReg(XPSR)  returns 0x0100001F (0000ms, 0324ms total)
T62C8 004:381 JLINK_ClrBPEx(BPHandle = 0x00000004)  returns 0x00 (0000ms, 0324ms total)
T62C8 004:381 JLINK_ReadMemU32(0xE000ED30, 0x0001 Items, ...) -- CPU_ReadMem(4 bytes @ 0xE000ED30) - Data: 03 00 00 00  returns 0x01 (0000ms, 0324ms total)
T62C8 004:381 JLINK_ReadMemU32(0xE0001028, 0x0001 Items, ...) -- CPU_ReadMem(4 bytes @ 0xE0001028) - Data: 00 00 00 00  returns 0x01 (0001ms, 0325ms total)
T62C8 004:382 JLINK_ReadMemU32(0xE0001038, 0x0001 Items, ...) -- CPU_ReadMem(4 bytes @ 0xE0001038) - Data: 00 00 00 00  returns 0x01 (0000ms, 0325ms total)
T62C8 004:382 JLINK_ReadReg(R0)  returns 0x00000002 (0000ms, 0325ms total)
T62C8 004:382 JLINK_ReadReg(R1)  returns 0x00000002 (0000ms, 0325ms total)
T62C8 004:382 JLINK_ReadReg(R2)  returns 0x00000002 (0000ms, 0325ms total)
T62C8 004:382 JLINK_ReadReg(R3)  returns 0x1FFFF024 (0000ms, 0325ms total)
T62C8 004:382 JLINK_ReadReg(R4)  returns 0x00000001 (0000ms, 0325ms total)
T62C8 004:382 JLINK_ReadReg(R5)  returns 0x1FFFF4D4 (0001ms, 0326ms total)
T62C8 004:383 JLINK_ReadReg(R6)  returns 0x00000000 (0000ms, 0326ms total)
T62C8 004:383 JLINK_ReadReg(R7)  returns 0x00000000 (0000ms, 0326ms total)
T62C8 004:383 JLINK_ReadReg(R8)  returns 0x00000000 (0000ms, 0326ms total)
T62C8 004:383 JLINK_ReadReg(R9)  returns 0x1FFFF1A8 (0000ms, 0326ms total)
T62C8 004:383 JLINK_ReadReg(R10)  returns 0x00001244 (0000ms, 0326ms total)
T62C8 004:383 JLINK_ReadReg(R11)  returns 0x00001244 (0000ms, 0326ms total)
T62C8 004:383 JLINK_ReadReg(R12)  returns 0x00000000 (0000ms, 0326ms total)
T62C8 004:383 JLINK_ReadReg(R13 (SP))  returns 0x1FFFF5F0 (0000ms, 0326ms total)
T62C8 004:383 JLINK_ReadReg(R14)  returns 0xFFFFFFF9 (0000ms, 0326ms total)
T62C8 004:383 JLINK_ReadReg(R15 (PC))  returns 0x00000360 (0000ms, 0326ms total)
T62C8 004:383 JLINK_ReadReg(XPSR)  returns 0x0100001F (0000ms, 0326ms total)
T62C8 004:383 JLINK_ReadReg(MSP)  returns 0x1FFFF5F0 (0000ms, 0326ms total)
T62C8 004:383 JLINK_ReadReg(PSP)  returns 0x20000000 (0000ms, 0326ms total)
T62C8 004:383 JLINK_ReadReg(CFBP)  returns 0x00000000 (0000ms, 0326ms total)
T8AD0 004:383 JLINK_ReadMem (0x1FFFF608, 0x0004 Bytes, ...) -- CPU_ReadMem(64 bytes @ 0x1FFFF600) -- Updating C cache (64 bytes @ 0x1FFFF600) -- Read from C cache (4 bytes @ 0x1FFFF608) - Data: F4 0A 00 00  returns 0x00 (0001ms, 0327ms total)
T8AD0 004:384 JLINK_ReadMem (0x1FFFF60C, 0x0004 Bytes, ...) -- Read from C cache (4 bytes @ 0x1FFFF60C) - Data: 00 00 00 01  returns 0x00 (0001ms, 0328ms total)
T8AD0 004:385 JLINK_ReadMem (0x1FFFF604, 0x0004 Bytes, ...) -- Read from C cache (4 bytes @ 0x1FFFF604) - Data: EB 03 00 00  returns 0x00 (0000ms, 0328ms total)
T8AD0 004:385 JLINK_ReadMem (0xE000ED28, 0x0004 Bytes, ...) -- CPU_ReadMem(4 bytes @ 0xE000ED28) - Data: 00 00 00 00  returns 0x00 (0000ms, 0328ms total)
T8AD0 004:385 JLINK_ReadMem (0x1FFFF61C, 0x0004 Bytes, ...) -- Read from C cache (4 bytes @ 0x1FFFF61C) - Data: EB 03 00 00  returns 0x00 (0000ms, 0328ms total)
T8AD0 004:385 JLINK_ReadMem (0x1FFFF610, 0x0004 Bytes, ...) -- Read from C cache (4 bytes @ 0x1FFFF610) - Data: 44 12 00 00  returns 0x00 (0000ms, 0328ms total)
T8AD0 004:385 JLINK_ReadMem (0x1FFFF614, 0x0004 Bytes, ...) -- Read from C cache (4 bytes @ 0x1FFFF614) - Data: D4 F4 FF 1F  returns 0x00 (0000ms, 0328ms total)
T8AD0 004:385 JLINK_ReadMem (0x1FFFF618, 0x0004 Bytes, ...) -- Read from C cache (4 bytes @ 0x1FFFF618) - Data: 00 00 00 00  returns 0x00 (0001ms, 0329ms total)
T8AD0 004:386 JLINK_ReadMem (0x1FFFF624, 0x0004 Bytes, ...) -- Read from C cache (4 bytes @ 0x1FFFF624) - Data: E9 11 00 00  returns 0x00 (0000ms, 0329ms total)
T8AD0 004:386 JLINK_ReadMem (0x1FFFF620, 0x0004 Bytes, ...) -- Read from C cache (4 bytes @ 0x1FFFF620) - Data: 44 12 00 00  returns 0x00 (0000ms, 0329ms total)
T8AD0 004:386 JLINK_ReadMem (0x1FFFF634, 0x0004 Bytes, ...) -- Read from C cache (4 bytes @ 0x1FFFF634) - Data: 53 01 00 00  returns 0x00 (0000ms, 0329ms total)
T8AD0 004:386 JLINK_ReadMem (0x00000000, 0x0002 Bytes, ...) -- CPU_ReadMem(64 bytes @ 0x00000000) -- Updating C cache (64 bytes @ 0x00000000) -- Read from C cache (2 bytes @ 0x00000000) - Data: 38 F6  returns 0x00 (0001ms, 0330ms total)
T8AD0 004:387 JLINK_ReadMem (0x1FFFF000, 0x0004 Bytes, ...) -- CPU_ReadMem(64 bytes @ 0x1FFFF000) -- Updating C cache (64 bytes @ 0x1FFFF000) -- Read from C cache (4 bytes @ 0x1FFFF000) - Data: 00 B4 C4 04  returns 0x00 (0001ms, 0331ms total)
T8AD0 004:390 JLINK_ReadMem (0x40048000, 0x0024 Bytes, ...) -- CPU_ReadMem(36 bytes @ 0x40048000) - Data: 00 04 28 06 0E 00 00 00 00 00 00 00 00 00 00 00 ...  returns 0x00 (0001ms, 0332ms total)
T8AD0 004:391 JLINK_ReadMem (0x40048024, 0x0004 Bytes, ...) -- CPU_ReadMem(4 bytes @ 0x40048024) - Data: 00 00 10 01  returns 0x00 (0001ms, 0333ms total)
T8AD0 004:392 JLINK_ReadMem (0x4003B000, 0x001C Bytes, ...) -- CPU_ReadMem(28 bytes @ 0x4003B000) - Data: E1 00 00 00 97 00 00 00 28 00 00 00 01 00 00 00 ...  returns 0x00 (0001ms, 0334ms total)
T8AD0 004:393 JLINK_ReadMem (0x4003B01C, 0x0004 Bytes, ...) -- CPU_ReadMem(4 bytes @ 0x4003B01C) - Data: 00 00 00 00  returns 0x00 (0000ms, 0334ms total)
T62C8 005:610 JLINK_Step() -- CPU_ReadMem(64 bytes @ 0x00000340) -- Updating C cache (64 bytes @ 0x00000340) -- Read from C cache (2 bytes @ 0x00000360) -- CPU_ReadMem(4 bytes @ 0xE0001004) -- Simulated  returns 0x00 (0002ms, 0336ms total)
T62C8 005:612 JLINK_ReadReg(R15 (PC))  returns 0x00000362 (0000ms, 0336ms total)
T62C8 005:612 JLINK_ReadReg(XPSR)  returns 0x4100001F (0000ms, 0336ms total)
T62C8 005:613 JLINK_SetBPEx(Addr = 0x00000360, Type = 0xFFFFFFF2)  returns 0x00000005 (0000ms, 0336ms total)
T62C8 005:613 JLINK_Go() -- CPU_WriteMem(4 bytes @ 0xE0002000) -- CPU_ReadMem(4 bytes @ 0xE0001000) -- CPU_WriteMem(4 bytes @ 0xE0001000) -- CPU_WriteMem(4 bytes @ 0xE0001004) (0003ms, 0339ms total)
T62C8 005:716 JLINK_IsHalted()  returns TRUE (0003ms, 0342ms total)
T62C8 005:719 JLINK_Halt()  returns 0x00 (0000ms, 0339ms total)
T62C8 005:719 JLINK_IsHalted()  returns TRUE (0000ms, 0339ms total)
T62C8 005:719 JLINK_IsHalted()  returns TRUE (0000ms, 0339ms total)
T62C8 005:719 JLINK_IsHalted()  returns TRUE (0001ms, 0340ms total)
T62C8 005:720 JLINK_ReadReg(R15 (PC))  returns 0x00000360 (0000ms, 0339ms total)
T62C8 005:720 JLINK_ReadReg(XPSR)  returns 0x0100001F (0000ms, 0339ms total)
T62C8 005:720 JLINK_ClrBPEx(BPHandle = 0x00000005)  returns 0x00 (0000ms, 0339ms total)
T62C8 005:720 JLINK_ReadMemU32(0xE000ED30, 0x0001 Items, ...) -- CPU_ReadMem(4 bytes @ 0xE000ED30) - Data: 03 00 00 00  returns 0x01 (0000ms, 0339ms total)
T62C8 005:720 JLINK_ReadMemU32(0xE0001028, 0x0001 Items, ...) -- CPU_ReadMem(4 bytes @ 0xE0001028) - Data: 00 00 00 00  returns 0x01 (0001ms, 0340ms total)
T62C8 005:721 JLINK_ReadMemU32(0xE0001038, 0x0001 Items, ...) -- CPU_ReadMem(4 bytes @ 0xE0001038) - Data: 00 00 00 00  returns 0x01 (0000ms, 0340ms total)
T62C8 005:721 JLINK_ReadReg(R0)  returns 0x00000002 (0000ms, 0340ms total)
T62C8 005:721 JLINK_ReadReg(R1)  returns 0x00000002 (0000ms, 0340ms total)
T62C8 005:721 JLINK_ReadReg(R2)  returns 0x00000002 (0000ms, 0340ms total)
T62C8 005:721 JLINK_ReadReg(R3)  returns 0x1FFFF024 (0001ms, 0341ms total)
T62C8 005:722 JLINK_ReadReg(R4)  returns 0x00000001 (0000ms, 0341ms total)
T62C8 005:722 JLINK_ReadReg(R5)  returns 0x1FFFF4D4 (0000ms, 0341ms total)
T62C8 005:722 JLINK_ReadReg(R6)  returns 0x00000000 (0000ms, 0341ms total)
T62C8 005:722 JLINK_ReadReg(R7)  returns 0x00000000 (0000ms, 0341ms total)
T62C8 005:722 JLINK_ReadReg(R8)  returns 0x00000000 (0000ms, 0341ms total)
T62C8 005:722 JLINK_ReadReg(R9)  returns 0x1FFFF1A8 (0000ms, 0341ms total)
T62C8 005:722 JLINK_ReadReg(R10)  returns 0x00001244 (0000ms, 0341ms total)
T62C8 005:722 JLINK_ReadReg(R11)  returns 0x00001244 (0000ms, 0341ms total)
T62C8 005:722 JLINK_ReadReg(R12)  returns 0x00000000 (0000ms, 0341ms total)
T62C8 005:722 JLINK_ReadReg(R13 (SP))  returns 0x1FFFF5F0 (0000ms, 0341ms total)
T62C8 005:722 JLINK_ReadReg(R14)  returns 0xFFFFFFF9 (0000ms, 0341ms total)
T62C8 005:722 JLINK_ReadReg(R15 (PC))  returns 0x00000360 (0000ms, 0341ms total)
T62C8 005:722 JLINK_ReadReg(XPSR)  returns 0x0100001F (0000ms, 0341ms total)
T62C8 005:722 JLINK_ReadReg(MSP)  returns 0x1FFFF5F0 (0000ms, 0341ms total)
T62C8 005:722 JLINK_ReadReg(PSP)  returns 0x20000000 (0000ms, 0341ms total)
T62C8 005:722 JLINK_ReadReg(CFBP)  returns 0x00000000 (0000ms, 0341ms total)
T8AD0 005:722 JLINK_ReadMem (0x1FFFF608, 0x0004 Bytes, ...) -- CPU_ReadMem(64 bytes @ 0x1FFFF600) -- Updating C cache (64 bytes @ 0x1FFFF600) -- Read from C cache (4 bytes @ 0x1FFFF608) - Data: F4 0A 00 00  returns 0x00 (0001ms, 0342ms total)
T8AD0 005:723 JLINK_ReadMem (0x1FFFF60C, 0x0004 Bytes, ...) -- Read from C cache (4 bytes @ 0x1FFFF60C) - Data: 00 00 00 01  returns 0x00 (0001ms, 0343ms total)
T8AD0 005:724 JLINK_ReadMem (0x1FFFF604, 0x0004 Bytes, ...) -- Read from C cache (4 bytes @ 0x1FFFF604) - Data: EB 03 00 00  returns 0x00 (0000ms, 0343ms total)
T8AD0 005:724 JLINK_ReadMem (0xE000ED28, 0x0004 Bytes, ...) -- CPU_ReadMem(4 bytes @ 0xE000ED28) - Data: 00 00 00 00  returns 0x00 (0000ms, 0343ms total)
T8AD0 005:724 JLINK_ReadMem (0x1FFFF61C, 0x0004 Bytes, ...) -- Read from C cache (4 bytes @ 0x1FFFF61C) - Data: EB 03 00 00  returns 0x00 (0000ms, 0343ms total)
T8AD0 005:724 JLINK_ReadMem (0x1FFFF610, 0x0004 Bytes, ...) -- Read from C cache (4 bytes @ 0x1FFFF610) - Data: 44 12 00 00  returns 0x00 (0000ms, 0343ms total)
T8AD0 005:724 JLINK_ReadMem (0x1FFFF614, 0x0004 Bytes, ...) -- Read from C cache (4 bytes @ 0x1FFFF614) - Data: D4 F4 FF 1F  returns 0x00 (0000ms, 0343ms total)
T8AD0 005:724 JLINK_ReadMem (0x1FFFF618, 0x0004 Bytes, ...) -- Read from C cache (4 bytes @ 0x1FFFF618) - Data: 00 00 00 00  returns 0x00 (0000ms, 0343ms total)
T8AD0 005:724 JLINK_ReadMem (0x1FFFF624, 0x0004 Bytes, ...) -- Read from C cache (4 bytes @ 0x1FFFF624) - Data: E9 11 00 00  returns 0x00 (0000ms, 0343ms total)
T8AD0 005:724 JLINK_ReadMem (0x1FFFF620, 0x0004 Bytes, ...) -- Read from C cache (4 bytes @ 0x1FFFF620) - Data: 44 12 00 00  returns 0x00 (0001ms, 0344ms total)
T8AD0 005:725 JLINK_ReadMem (0x1FFFF634, 0x0004 Bytes, ...) -- Read from C cache (4 bytes @ 0x1FFFF634) - Data: 53 01 00 00  returns 0x00 (0000ms, 0344ms total)
T8AD0 005:725 JLINK_ReadMem (0x00000000, 0x0002 Bytes, ...) -- CPU_ReadMem(64 bytes @ 0x00000000) -- Updating C cache (64 bytes @ 0x00000000) -- Read from C cache (2 bytes @ 0x00000000) - Data: 38 F6  returns 0x00 (0001ms, 0345ms total)
T8AD0 005:726 JLINK_ReadMem (0x1FFFF000, 0x0004 Bytes, ...) -- CPU_ReadMem(64 bytes @ 0x1FFFF000) -- Updating C cache (64 bytes @ 0x1FFFF000) -- Read from C cache (4 bytes @ 0x1FFFF000) - Data: 00 B4 C4 04  returns 0x00 (0001ms, 0346ms total)
T8AD0 005:730 JLINK_ReadMem (0x40048000, 0x0024 Bytes, ...) -- CPU_ReadMem(36 bytes @ 0x40048000) - Data: 00 04 28 06 0E 00 00 00 00 00 00 00 00 00 00 00 ...  returns 0x00 (0001ms, 0347ms total)
T8AD0 005:731 JLINK_ReadMem (0x40048024, 0x0004 Bytes, ...) -- CPU_ReadMem(4 bytes @ 0x40048024) - Data: 00 00 10 01  returns 0x00 (0001ms, 0348ms total)
T8AD0 005:732 JLINK_ReadMem (0x4003B000, 0x001C Bytes, ...) -- CPU_ReadMem(28 bytes @ 0x4003B000) - Data: E1 00 00 00 97 00 00 00 28 00 00 00 01 00 00 00 ...  returns 0x00 (0001ms, 0349ms total)
T8AD0 005:733 JLINK_ReadMem (0x4003B01C, 0x0004 Bytes, ...) -- CPU_ReadMem(4 bytes @ 0x4003B01C) - Data: 00 00 00 00  returns 0x00 (0001ms, 0350ms total)
T62C8 006:242 JLINK_Step() -- CPU_ReadMem(64 bytes @ 0x00000340) -- Updating C cache (64 bytes @ 0x00000340) -- Read from C cache (2 bytes @ 0x00000360) -- CPU_ReadMem(4 bytes @ 0xE0001004) -- Simulated  returns 0x00 (0003ms, 0353ms total)
T62C8 006:245 JLINK_ReadReg(R15 (PC))  returns 0x00000362 (0000ms, 0353ms total)
T62C8 006:245 JLINK_ReadReg(XPSR)  returns 0x4100001F (0000ms, 0353ms total)
T62C8 006:245 JLINK_SetBPEx(Addr = 0x00000360, Type = 0xFFFFFFF2)  returns 0x00000006 (0000ms, 0353ms total)
T62C8 006:245 JLINK_Go() -- CPU_WriteMem(4 bytes @ 0xE0002000) -- CPU_ReadMem(4 bytes @ 0xE0001000) -- CPU_WriteMem(4 bytes @ 0xE0001000) -- CPU_WriteMem(4 bytes @ 0xE0001004) (0004ms, 0357ms total)
T62C8 006:349 JLINK_IsHalted()  returns TRUE (0003ms, 0360ms total)
T62C8 006:352 JLINK_Halt()  returns 0x00 (0000ms, 0357ms total)
T62C8 006:353 JLINK_IsHalted()  returns TRUE (0000ms, 0358ms total)
T62C8 006:353 JLINK_IsHalted()  returns TRUE (0000ms, 0358ms total)
T62C8 006:353 JLINK_IsHalted()  returns TRUE (0000ms, 0358ms total)
T62C8 006:353 JLINK_ReadReg(R15 (PC))  returns 0x00000360 (0000ms, 0358ms total)
T62C8 006:353 JLINK_ReadReg(XPSR)  returns 0x0100001F (0000ms, 0358ms total)
T62C8 006:353 JLINK_ClrBPEx(BPHandle = 0x00000006)  returns 0x00 (0000ms, 0358ms total)
T62C8 006:353 JLINK_ReadMemU32(0xE000ED30, 0x0001 Items, ...) -- CPU_ReadMem(4 bytes @ 0xE000ED30) - Data: 03 00 00 00  returns 0x01 (0000ms, 0358ms total)
T62C8 006:353 JLINK_ReadMemU32(0xE0001028, 0x0001 Items, ...) -- CPU_ReadMem(4 bytes @ 0xE0001028) - Data: 00 00 00 00  returns 0x01 (0001ms, 0359ms total)
T62C8 006:354 JLINK_ReadMemU32(0xE0001038, 0x0001 Items, ...) -- CPU_ReadMem(4 bytes @ 0xE0001038) - Data: 00 00 00 00  returns 0x01 (0001ms, 0360ms total)
T62C8 006:355 JLINK_ReadReg(R0)  returns 0x00000002 (0000ms, 0360ms total)
T62C8 006:355 JLINK_ReadReg(R1)  returns 0x00000002 (0000ms, 0360ms total)
T62C8 006:355 JLINK_ReadReg(R2)  returns 0x00000002 (0000ms, 0360ms total)
T62C8 006:355 JLINK_ReadReg(R3)  returns 0x1FFFF024 (0000ms, 0360ms total)
T62C8 006:355 JLINK_ReadReg(R4)  returns 0x00000001 (0000ms, 0360ms total)
T62C8 006:355 JLINK_ReadReg(R5)  returns 0x1FFFF4D4 (0000ms, 0360ms total)
T62C8 006:355 JLINK_ReadReg(R6)  returns 0x00000000 (0000ms, 0360ms total)
T62C8 006:355 JLINK_ReadReg(R7)  returns 0x00000000 (0000ms, 0360ms total)
T62C8 006:355 JLINK_ReadReg(R8)  returns 0x00000000 (0000ms, 0360ms total)
T62C8 006:356 JLINK_ReadReg(R9)  returns 0x1FFFF1A8 (0000ms, 0361ms total)
T62C8 006:356 JLINK_ReadReg(R10)  returns 0x00001244 (0000ms, 0361ms total)
T62C8 006:356 JLINK_ReadReg(R11)  returns 0x00001244 (0000ms, 0361ms total)
T62C8 006:356 JLINK_ReadReg(R12)  returns 0x00000000 (0000ms, 0361ms total)
T62C8 006:356 JLINK_ReadReg(R13 (SP))  returns 0x1FFFF5F0 (0000ms, 0361ms total)
T62C8 006:356 JLINK_ReadReg(R14)  returns 0xFFFFFFF9 (0000ms, 0361ms total)
T62C8 006:356 JLINK_ReadReg(R15 (PC))  returns 0x00000360 (0000ms, 0361ms total)
T62C8 006:356 JLINK_ReadReg(XPSR)  returns 0x0100001F (0000ms, 0361ms total)
T62C8 006:356 JLINK_ReadReg(MSP)  returns 0x1FFFF5F0 (0000ms, 0361ms total)
T62C8 006:356 JLINK_ReadReg(PSP)  returns 0x20000000 (0000ms, 0361ms total)
T62C8 006:356 JLINK_ReadReg(CFBP)  returns 0x00000000 (0000ms, 0361ms total)
T8AD0 006:356 JLINK_ReadMem (0x1FFFF608, 0x0004 Bytes, ...) -- CPU_ReadMem(64 bytes @ 0x1FFFF600) -- Updating C cache (64 bytes @ 0x1FFFF600) -- Read from C cache (4 bytes @ 0x1FFFF608) - Data: F4 0A 00 00  returns 0x00 (0001ms, 0362ms total)
T8AD0 006:357 JLINK_ReadMem (0x1FFFF60C, 0x0004 Bytes, ...) -- Read from C cache (4 bytes @ 0x1FFFF60C) - Data: 00 00 00 01  returns 0x00 (0000ms, 0362ms total)
T8AD0 006:357 JLINK_ReadMem (0x1FFFF604, 0x0004 Bytes, ...) -- Read from C cache (4 bytes @ 0x1FFFF604) - Data: EB 03 00 00  returns 0x00 (0000ms, 0362ms total)
T8AD0 006:357 JLINK_ReadMem (0xE000ED28, 0x0004 Bytes, ...) -- CPU_ReadMem(4 bytes @ 0xE000ED28) - Data: 00 00 00 00  returns 0x00 (0001ms, 0363ms total)
T8AD0 006:358 JLINK_ReadMem (0x1FFFF61C, 0x0004 Bytes, ...) -- Read from C cache (4 bytes @ 0x1FFFF61C) - Data: EB 03 00 00  returns 0x00 (0000ms, 0363ms total)
T8AD0 006:358 JLINK_ReadMem (0x1FFFF610, 0x0004 Bytes, ...) -- Read from C cache (4 bytes @ 0x1FFFF610) - Data: 44 12 00 00  returns 0x00 (0000ms, 0363ms total)
T8AD0 006:358 JLINK_ReadMem (0x1FFFF614, 0x0004 Bytes, ...) -- Read from C cache (4 bytes @ 0x1FFFF614) - Data: D4 F4 FF 1F  returns 0x00 (0000ms, 0363ms total)
T8AD0 006:358 JLINK_ReadMem (0x1FFFF618, 0x0004 Bytes, ...) -- Read from C cache (4 bytes @ 0x1FFFF618) - Data: 00 00 00 00  returns 0x00 (0000ms, 0363ms total)
T8AD0 006:358 JLINK_ReadMem (0x1FFFF624, 0x0004 Bytes, ...) -- Read from C cache (4 bytes @ 0x1FFFF624) - Data: E9 11 00 00  returns 0x00 (0000ms, 0363ms total)
T8AD0 006:358 JLINK_ReadMem (0x1FFFF620, 0x0004 Bytes, ...) -- Read from C cache (4 bytes @ 0x1FFFF620) - Data: 44 12 00 00  returns 0x00 (0000ms, 0363ms total)
T8AD0 006:358 JLINK_ReadMem (0x1FFFF634, 0x0004 Bytes, ...) -- Read from C cache (4 bytes @ 0x1FFFF634) - Data: 53 01 00 00  returns 0x00 (0000ms, 0363ms total)
T8AD0 006:358 JLINK_ReadMem (0x00000000, 0x0002 Bytes, ...) -- CPU_ReadMem(64 bytes @ 0x00000000) -- Updating C cache (64 bytes @ 0x00000000) -- Read from C cache (2 bytes @ 0x00000000) - Data: 38 F6  returns 0x00 (0002ms, 0365ms total)
T8AD0 006:360 JLINK_ReadMem (0x1FFFF000, 0x0004 Bytes, ...) -- CPU_ReadMem(64 bytes @ 0x1FFFF000) -- Updating C cache (64 bytes @ 0x1FFFF000) -- Read from C cache (4 bytes @ 0x1FFFF000) - Data: 00 B4 C4 04  returns 0x00 (0001ms, 0366ms total)
T8AD0 006:363 JLINK_ReadMem (0x40048000, 0x0024 Bytes, ...) -- CPU_ReadMem(36 bytes @ 0x40048000) - Data: 00 04 28 06 0E 00 00 00 00 00 00 00 00 00 00 00 ...  returns 0x00 (0001ms, 0367ms total)
T8AD0 006:364 JLINK_ReadMem (0x40048024, 0x0004 Bytes, ...) -- CPU_ReadMem(4 bytes @ 0x40048024) - Data: 00 00 10 01  returns 0x00 (0001ms, 0368ms total)
T8AD0 006:366 JLINK_ReadMem (0x4003B000, 0x001C Bytes, ...) -- CPU_ReadMem(28 bytes @ 0x4003B000) - Data: E0 00 00 00 97 00 00 00 28 00 00 00 01 00 00 00 ...  returns 0x00 (0000ms, 0368ms total)
T8AD0 006:366 JLINK_ReadMem (0x4003B01C, 0x0004 Bytes, ...) -- CPU_ReadMem(4 bytes @ 0x4003B01C) - Data: 00 00 00 00  returns 0x00 (0001ms, 0369ms total)
T62C8 006:851 JLINK_Step() -- CPU_ReadMem(64 bytes @ 0x00000340) -- Updating C cache (64 bytes @ 0x00000340) -- Read from C cache (2 bytes @ 0x00000360) -- CPU_ReadMem(4 bytes @ 0xE0001004) -- Simulated  returns 0x00 (0002ms, 0371ms total)
T62C8 006:853 JLINK_ReadReg(R15 (PC))  returns 0x00000362 (0000ms, 0371ms total)
T62C8 006:853 JLINK_ReadReg(XPSR)  returns 0x4100001F (0000ms, 0371ms total)
T62C8 006:853 JLINK_SetBPEx(Addr = 0x00000360, Type = 0xFFFFFFF2)  returns 0x00000007 (0000ms, 0371ms total)
T62C8 006:853 JLINK_Go() -- CPU_WriteMem(4 bytes @ 0xE0002000) -- CPU_ReadMem(4 bytes @ 0xE0001000) -- CPU_WriteMem(4 bytes @ 0xE0001000) -- CPU_WriteMem(4 bytes @ 0xE0001004) (0003ms, 0374ms total)
T62C8 006:957 JLINK_IsHalted()  returns TRUE (0003ms, 0377ms total)
T62C8 006:960 JLINK_Halt()  returns 0x00 (0000ms, 0374ms total)
T62C8 006:960 JLINK_IsHalted()  returns TRUE (0000ms, 0374ms total)
T62C8 006:960 JLINK_IsHalted()  returns TRUE (0000ms, 0374ms total)
T62C8 006:960 JLINK_IsHalted()  returns TRUE (0001ms, 0375ms total)
T62C8 006:961 JLINK_ReadReg(R15 (PC))  returns 0x00000360 (0000ms, 0374ms total)
T62C8 006:961 JLINK_ReadReg(XPSR)  returns 0x0100001F (0000ms, 0374ms total)
T62C8 006:961 JLINK_ClrBPEx(BPHandle = 0x00000007)  returns 0x00 (0000ms, 0374ms total)
T62C8 006:961 JLINK_ReadMemU32(0xE000ED30, 0x0001 Items, ...) -- CPU_ReadMem(4 bytes @ 0xE000ED30) - Data: 03 00 00 00  returns 0x01 (0000ms, 0374ms total)
T62C8 006:961 JLINK_ReadMemU32(0xE0001028, 0x0001 Items, ...) -- CPU_ReadMem(4 bytes @ 0xE0001028) - Data: 00 00 00 00  returns 0x01 (0001ms, 0375ms total)
T62C8 006:962 JLINK_ReadMemU32(0xE0001038, 0x0001 Items, ...) -- CPU_ReadMem(4 bytes @ 0xE0001038) - Data: 00 00 00 00  returns 0x01 (0001ms, 0376ms total)
T62C8 006:963 JLINK_ReadReg(R0)  returns 0x00000002 (0000ms, 0376ms total)
T62C8 006:963 JLINK_ReadReg(R1)  returns 0x00000002 (0000ms, 0376ms total)
T62C8 006:963 JLINK_ReadReg(R2)  returns 0x00000002 (0000ms, 0376ms total)
T62C8 006:963 JLINK_ReadReg(R3)  returns 0x1FFFF024 (0000ms, 0376ms total)
T62C8 006:963 JLINK_ReadReg(R4)  returns 0x00000001 (0000ms, 0376ms total)
T62C8 006:963 JLINK_ReadReg(R5)  returns 0x1FFFF4D4 (0000ms, 0376ms total)
T62C8 006:963 JLINK_ReadReg(R6)  returns 0x00000000 (0000ms, 0376ms total)
T62C8 006:963 JLINK_ReadReg(R7)  returns 0x00000000 (0000ms, 0376ms total)
T62C8 006:963 JLINK_ReadReg(R8)  returns 0x00000000 (0000ms, 0376ms total)
T62C8 006:963 JLINK_ReadReg(R9)  returns 0x1FFFF1A8 (0000ms, 0376ms total)
T62C8 006:963 JLINK_ReadReg(R10)  returns 0x00001244 (0000ms, 0376ms total)
T62C8 006:963 JLINK_ReadReg(R11)  returns 0x00001244 (0000ms, 0376ms total)
T62C8 006:963 JLINK_ReadReg(R12)  returns 0x00000000 (0000ms, 0376ms total)
T62C8 006:963 JLINK_ReadReg(R13 (SP))  returns 0x1FFFF5F0 (0000ms, 0376ms total)
T62C8 006:963 JLINK_ReadReg(R14)  returns 0xFFFFFFF9 (0001ms, 0377ms total)
T62C8 006:964 JLINK_ReadReg(R15 (PC))  returns 0x00000360 (0000ms, 0377ms total)
T62C8 006:964 JLINK_ReadReg(XPSR)  returns 0x0100001F (0000ms, 0377ms total)
T62C8 006:964 JLINK_ReadReg(MSP)  returns 0x1FFFF5F0 (0000ms, 0377ms total)
T62C8 006:964 JLINK_ReadReg(PSP)  returns 0x20000000 (0000ms, 0377ms total)
T62C8 006:964 JLINK_ReadReg(CFBP)  returns 0x00000000 (0000ms, 0377ms total)
T8AD0 006:964 JLINK_ReadMem (0x1FFFF608, 0x0004 Bytes, ...) -- CPU_ReadMem(64 bytes @ 0x1FFFF600) -- Updating C cache (64 bytes @ 0x1FFFF600) -- Read from C cache (4 bytes @ 0x1FFFF608) - Data: F4 0A 00 00  returns 0x00 (0002ms, 0379ms total)
T8AD0 006:966 JLINK_ReadMem (0x1FFFF60C, 0x0004 Bytes, ...) -- Read from C cache (4 bytes @ 0x1FFFF60C) - Data: 00 00 00 01  returns 0x00 (0000ms, 0379ms total)
T8AD0 006:966 JLINK_ReadMem (0x1FFFF604, 0x0004 Bytes, ...) -- Read from C cache (4 bytes @ 0x1FFFF604) - Data: EB 03 00 00  returns 0x00 (0000ms, 0379ms total)
T8AD0 006:966 JLINK_ReadMem (0xE000ED28, 0x0004 Bytes, ...) -- CPU_ReadMem(4 bytes @ 0xE000ED28) - Data: 00 00 00 00  returns 0x00 (0000ms, 0379ms total)
T8AD0 006:966 JLINK_ReadMem (0x1FFFF61C, 0x0004 Bytes, ...) -- Read from C cache (4 bytes @ 0x1FFFF61C) - Data: EB 03 00 00  returns 0x00 (0000ms, 0379ms total)
T8AD0 006:966 JLINK_ReadMem (0x1FFFF610, 0x0004 Bytes, ...) -- Read from C cache (4 bytes @ 0x1FFFF610) - Data: 44 12 00 00  returns 0x00 (0000ms, 0379ms total)
